date Tue Jun 17 03:04:39.575 PM 2025
base hex  timestamps absolute
internal events logged
Begin Triggerblock Tue Jun 17 03:04:39.617 PM 2025
 0.000000 Start of measurement
 0.000000 1  716             Tx   d 8 02 10 01 00 00 00 00 00
 0.017690 1  71E             Rx   d 8 06 50 01 00 32 01 F4 AA
 0.092702 1  1B1             Rx   d 8 04 01 01 00 01 01 00 04
 0.102626 1  36E             Rx   d 8 00 00 00 C0 00 00 00 00
 0.122627 1  3D5             Rx   d 8 FF 08 00 00 FC 00 00 00
 0.142570 1  1B2             Rx   d 8 F0 F0 0F F3 C0 33 3C 00
 0.292596 1  1B1             Rx   d 8 04 01 01 00 01 01 00 04
 0.302610 1  36E             Rx   d 8 00 00 00 C0 00 00 00 00
 0.322593 1  3D5             Rx   d 8 FF 08 00 00 FC 00 00 00
 0.342539 1  1B2             Rx   d 8 F0 F0 0F F3 C0 33 3C 00
 0.492584 1  1B1             Rx   d 8 04 01 01 00 01 01 00 04
 0.502596 1  36E             Rx   d 8 00 00 00 C0 00 00 00 00
 0.522578 1  3D5             Rx   d 8 FF 08 00 00 FC 00 00 00
 0.542535 1  1B2             Rx   d 8 F0 F0 0F F3 C0 33 3C 00
 0.637588 1  457             Rx   d 8 57 04 00 00 00 00 FF FF
 0.692593 1  1B1             Rx   d 8 04 01 01 00 01 01 00 04
 0.702596 1  36E             Rx   d 8 00 00 00 C0 00 00 00 00
 0.722593 1  3D5             Rx   d 8 FF 08 00 00 FC 00 00 00
 0.742559 1  1B2             Rx   d 8 F0 F0 0F F3 C0 33 3C 00
 0.892586 1  1B1             Rx   d 8 04 01 01 00 01 01 00 04
 0.902607 1  36E             Rx   d 8 00 00 00 C0 00 00 00 00
 0.922597 1  3D5             Rx   d 8 FF 08 00 00 FC 00 00 00
 0.942538 1  1B2             Rx   d 8 F0 F0 0F F3 C0 33 3C 00
 1.092587 1  1B1             Rx   d 8 04 01 01 00 01 01 00 04
 1.102605 1  36E             Rx   d 8 00 00 00 C0 00 00 00 00
 1.122594 1  3D5             Rx   d 8 FF 08 00 00 FC 00 00 00
 1.142529 1  1B2             Rx   d 8 F0 F0 0F F3 C0 33 3C 00
 1.292614 1  1B1             Rx   d 8 04 01 01 00 01 01 00 04
 1.302620 1  36E             Rx   d 8 00 00 00 C0 00 00 00 00
 1.322592 1  3D5             Rx   d 8 FF 08 00 00 FC 00 00 00
 1.342554 1  1B2             Rx   d 8 F0 F0 0F F3 C0 33 3C 00
 1.492604 1  1B1             Rx   d 8 04 01 01 00 01 01 00 04
 1.502614 1  36E             Rx   d 8 00 00 00 C0 00 00 00 00
 1.522614 1  3D5             Rx   d 8 FF 08 00 00 FC 00 00 00
 1.542555 1  1B2             Rx   d 8 F0 F0 0F F3 C0 33 3C 00
 1.637622 1  457             Rx   d 8 57 04 00 00 00 00 FF FF
 1.692617 1  1B1             Rx   d 8 04 01 01 00 01 01 00 04
 1.702631 1  36E             Rx   d 8 00 00 00 C0 00 00 00 00
 1.722607 1  3D5             Rx   d 8 FF 08 00 00 FC 00 00 00
 1.742555 1  1B2             Rx   d 8 F0 F0 0F F3 C0 33 3C 00
 1.892617 1  1B1             Rx   d 8 04 01 01 00 01 01 00 04
 1.902622 1  36E             Rx   d 8 00 00 00 C0 00 00 00 00
 1.922611 1  3D5             Rx   d 8 FF 08 00 00 FC 00 00 00
 1.942571 1  1B2             Rx   d 8 F0 F0 0F F3 C0 33 3C 00
 2.092617 1  1B1             Rx   d 8 04 01 01 00 01 01 00 04
 2.102632 1  36E             Rx   d 8 00 00 00 C0 00 00 00 00
 2.122628 1  3D5             Rx   d 8 FF 08 00 00 FC 00 00 00
 2.142564 1  1B2             Rx   d 8 F0 F0 0F F3 C0 33 3C 00
 2.185184 1  716             Tx   d 8 02 10 02 00 00 00 00 00
 2.207627 1  71E             Rx   d 8 03 7F 10 78 AA AA AA AA
 2.292648 1  1B1             Rx   d 8 04 01 01 00 01 01 00 04
 2.302639 1  36E             Rx   d 8 00 00 00 C0 00 00 00 00
 2.322647 1  3D5             Rx   d 8 FF 08 00 00 FC 00 00 00
 2.342581 1  1B2             Rx   d 8 F0 F0 0F F3 C0 33 3C 00
 2.461500 1  71E             Rx   d 8 06 50 02 00 32 01 F4 AA
 4.628937 1  716             Tx   d 8 02 10 03 00 00 00 00 00
 4.630119 1  71E             Rx   d 8 03 7F 10 7E AA AA AA AA
 9.714666 1  457             Rx   d 8 57 01 00 00 00 00 FF FF
 9.814635 1  457             Rx   d 8 57 02 00 00 00 00 FF FF
 9.829689 1  1B1             Rx   d 8 FF FF FF FF FF FF 00 FF
 9.834571 1  1B2             Rx   d 8 F0 F0 0F F3 C0 33 3C 00
 9.835759 1  B3              Rx   d 8 FF FF FF FD 38 00 00 00
 9.836985 1  36E             Rx   d 8 00 00 00 C0 00 00 00 00
 9.838208 1  3D5             Rx   d 8 FF 08 00 00 FC 00 00 00
 9.854621 1  1B1             Rx   d 8 04 01 01 00 01 01 00 04
 9.859674 1  36E             Rx   d 8 00 00 00 C0 00 00 00 00
 9.860850 1  3D5             Rx   d 8 FF 08 00 00 FC 00 00 00
 9.879801 1  1B2             Rx   d 8 F0 F0 0F F3 C0 33 3C 00
 10.029660 1  1B1             Rx   d 8 04 01 01 00 01 01 00 04
 10.039655 1  36E             Rx   d 8 00 00 00 C0 00 00 00 00
 10.059661 1  3D5             Rx   d 8 FF 08 00 00 FC 00 00 00
 10.079637 1  1B2             Rx   d 8 F0 F0 0F F3 C0 33 3C 00
 10.080792 1  457             Rx   d 8 57 01 00 00 00 00 FF FF
 10.179687 1  457             Rx   d 8 57 02 00 00 00 00 FF FF
 10.229659 1  1B1             Rx   d 8 04 01 01 00 01 01 00 04
 10.239654 1  36E             Rx   d 8 00 00 00 C0 00 00 00 00
 10.259655 1  3D5             Rx   d 8 FF 08 00 00 FC 00 00 00
 10.279637 1  1B2             Rx   d 8 F0 F0 0F F3 C0 33 3C 00
 10.429660 1  1B1             Rx   d 8 04 01 01 00 01 01 00 04
 10.439721 1  36E             Rx   d 8 00 00 00 C0 00 00 00 00
 10.444637 1  457             Rx   d 8 57 01 00 00 00 00 FF FF
 10.459687 1  3D5             Rx   d 8 FF 08 00 00 FC 00 00 00
 10.479628 1  1B2             Rx   d 8 F0 F0 0F F3 C0 33 3C 00
 10.544666 1  457             Rx   d 8 57 02 00 00 00 00 FF FF
 10.629662 1  1B1             Rx   d 8 04 01 01 00 01 01 00 04
 10.639688 1  36E             Rx   d 8 00 00 00 C0 00 00 00 00
 10.659679 1  3D5             Rx   d 8 FF 08 00 00 FC 00 00 00
 10.679631 1  1B2             Rx   d 8 F0 F0 0F F3 C0 33 3C 00
 10.809707 1  457             Rx   d 8 57 01 00 00 00 00 FF FF
 10.829644 1  1B1             Rx   d 8 04 01 01 00 01 01 00 04
 10.839653 1  36E             Rx   d 8 00 00 00 C0 00 00 00 00
 10.859657 1  3D5             Rx   d 8 FF 08 00 00 FC 00 00 00
 10.879621 1  1B2             Rx   d 8 F0 F0 0F F3 C0 33 3C 00
 10.909660 1  457             Rx   d 8 57 02 00 00 00 00 FF FF
 11.029658 1  1B1             Rx   d 8 04 01 01 00 01 01 00 04
 11.039662 1  36E             Rx   d 8 00 00 00 C0 00 00 00 00
 11.059657 1  3D5             Rx   d 8 FF 08 00 00 FC 00 00 00
 11.079606 1  1B2             Rx   d 8 F0 F0 0F F3 C0 33 3C 00
 11.174940 1  457             Rx   d 8 57 01 00 00 00 00 FF FF
 11.230115 1  1B1             Rx   d 8 04 01 01 00 01 01 00 04
 11.239735 1  36E             Rx   d 8 00 00 00 C0 00 00 00 00
 11.259776 1  3D5             Rx   d 8 FF 08 00 00 FC 00 00 00
 11.279794 1  1B2             Rx   d 8 F0 F0 0F F3 C0 33 3C 00
 11.429689 1  1B1             Rx   d 8 04 01 01 00 01 01 00 04
 11.439692 1  36E             Rx   d 8 00 00 00 C0 00 00 00 00
 11.459673 1  3D5             Rx   d 8 FF 08 00 00 FC 00 00 00
 11.479615 1  1B2             Rx   d 8 F0 F0 0F F3 C0 33 3C 00
 11.629663 1  1B1             Rx   d 8 04 01 01 00 01 01 00 04
 11.639690 1  36E             Rx   d 8 00 00 00 C0 00 00 00 00
 11.659668 1  3D5             Rx   d 8 FF 08 00 00 FC 00 00 00
 11.679617 1  1B2             Rx   d 8 F0 F0 0F F3 C0 33 3C 00
 11.829684 1  1B1             Rx   d 8 04 01 01 00 01 01 00 04
 11.839695 1  36E             Rx   d 8 00 00 00 C0 00 00 00 00
 11.859679 1  3D5             Rx   d 8 FF 08 00 00 FC 00 00 00
 11.879642 1  1B2             Rx   d 8 F0 F0 0F F3 C0 33 3C 00
 12.029683 1  1B1             Rx   d 8 04 01 01 00 01 01 00 04
 12.039707 1  36E             Rx   d 8 00 00 00 C0 00 00 00 00
 12.059691 1  3D5             Rx   d 8 FF 08 00 00 FC 00 00 00
 12.079645 1  1B2             Rx   d 8 F0 F0 0F F3 C0 33 3C 00
 12.174717 1  457             Rx   d 8 57 04 00 00 00 00 FF FF
 12.229703 1  1B1             Rx   d 8 04 01 01 00 01 01 00 04
 12.239713 1  36E             Rx   d 8 00 00 00 C0 00 00 00 00
 12.259694 1  3D5             Rx   d 8 FF 08 00 00 FC 00 00 00
 12.279648 1  1B2             Rx   d 8 F0 F0 0F F3 C0 33 3C 00
 12.429679 1  1B1             Rx   d 8 04 01 01 00 01 01 00 04
 12.439718 1  36E             Rx   d 8 00 00 00 C0 00 00 00 00
 12.459696 1  3D5             Rx   d 8 FF 08 00 00 FC 00 00 00
 12.479635 1  1B2             Rx   d 8 F0 F0 0F F3 C0 33 3C 00
 12.629682 1  1B1             Rx   d 8 04 01 01 00 01 01 00 04
 12.639747 1  36E             Rx   d 8 00 00 00 C0 00 00 00 00
 12.659725 1  3D5             Rx   d 8 FF 08 00 00 FC 00 00 00
 12.679650 1  1B2             Rx   d 8 F0 F0 0F F3 C0 33 3C 00
 12.829705 1  1B1             Rx   d 8 04 01 01 00 01 01 00 04
 12.839710 1  36E             Rx   d 8 00 00 00 C0 00 00 00 00
 12.859700 1  3D5             Rx   d 8 FF 08 00 00 FC 00 00 00
 12.879652 1  1B2             Rx   d 8 F0 F0 0F F3 C0 33 3C 00
 13.029796 1  1B1             Rx   d 8 04 01 01 00 01 01 00 04
 13.039811 1  36E             Rx   d 8 00 00 00 C0 00 00 00 00
 13.059817 1  3D5             Rx   d 8 FF 08 00 00 FC 00 00 00
 13.079756 1  1B2             Rx   d 8 F0 F0 0F F3 C0 33 3C 00
 13.174843 1  457             Rx   d 8 57 04 00 00 00 00 FF FF
 13.229831 1  1B1             Rx   d 8 04 01 01 00 01 01 00 04
 13.239837 1  36E             Rx   d 8 00 00 00 C0 00 00 00 00
 13.259814 1  3D5             Rx   d 8 FF 08 00 00 FC 00 00 00
 13.279756 1  1B2             Rx   d 8 F0 F0 0F F3 C0 33 3C 00
 13.311060 1  716             Tx   d 8 02 11 01 00 00 00 00 00
 13.314729 1  71E             Rx   d 8 02 51 01 AA AA AA AA AA
 13.429792 1  1B1             Rx   d 8 04 01 01 00 01 01 00 04
 13.440000 1  36E             Rx   d 8 00 00 00 C0 00 00 00 00
 13.460233 1  3D5             Rx   d 8 FF 08 00 00 FC 00 00 00
 13.479760 1  1B2             Rx   d 8 F0 F0 0F F3 C0 33 3C 00
 13.641254 1  457             Rx   d 8 57 01 00 00 00 00 FF FF
 13.741213 1  457             Rx   d 8 57 02 00 00 00 00 FF FF
 13.756246 1  1B1             Rx   d 8 FF FF FF FF FF FF 00 FF
 13.761192 1  1B2             Rx   d 8 F0 F0 0F F3 C0 33 3C 00
 13.762350 1  B3              Rx   d 8 FF FF FF FD 38 00 00 00
 13.763577 1  36E             Rx   d 8 00 00 00 C0 00 00 00 00
 13.764793 1  3D5             Rx   d 8 FF 08 00 00 FC 00 00 00
 13.781201 1  1B1             Rx   d 8 04 01 01 00 01 01 00 04
 13.786217 1  36E             Rx   d 8 00 00 00 C0 00 00 00 00
 13.787428 1  3D5             Rx   d 8 FF 08 00 00 FC 00 00 00
 13.806349 1  1B2             Rx   d 8 F0 F0 0F F3 C0 33 3C 00
 13.956217 1  1B1             Rx   d 8 04 01 01 00 01 01 00 04
 13.966237 1  36E             Rx   d 8 00 00 00 C0 00 00 00 00
 13.986218 1  3D5             Rx   d 8 FF 08 00 00 FC 00 00 00
 14.006172 1  1B2             Rx   d 8 F0 F0 0F F3 C0 33 3C 00
 14.007379 1  457             Rx   d 8 57 01 00 00 00 00 FF FF
 14.106246 1  457             Rx   d 8 57 02 00 00 00 00 FF FF
 14.156238 1  1B1             Rx   d 8 04 01 01 00 01 01 00 04
 14.166251 1  36E             Rx   d 8 00 00 00 C0 00 00 00 00
 14.186234 1  3D5             Rx   d 8 FF 08 00 00 FC 00 00 00
 14.206203 1  1B2             Rx   d 8 F0 F0 0F F3 C0 33 3C 00
 14.356246 1  1B1             Rx   d 8 04 01 01 00 01 01 00 04
 14.366256 1  36E             Rx   d 8 00 00 00 C0 00 00 00 00
 14.371208 1  457             Rx   d 8 57 01 00 00 00 00 FF FF
 14.386232 1  3D5             Rx   d 8 FF 08 00 00 FC 00 00 00
 14.406174 1  1B2             Rx   d 8 F0 F0 0F F3 C0 33 3C 00
 14.471241 1  457             Rx   d 8 57 02 00 00 00 00 FF FF
 14.556234 1  1B1             Rx   d 8 04 01 01 00 01 01 00 04
 14.566264 1  36E             Rx   d 8 00 00 00 C0 00 00 00 00
 14.586249 1  3D5             Rx   d 8 FF 08 00 00 FC 00 00 00
 14.606191 1  1B2             Rx   d 8 F0 F0 0F F3 C0 33 3C 00
 14.736280 1  457             Rx   d 8 57 01 00 00 00 00 FF FF
 14.756235 1  1B1             Rx   d 8 04 01 01 00 01 01 00 04
 14.766249 1  36E             Rx   d 8 00 00 00 C0 00 00 00 00
 14.786236 1  3D5             Rx   d 8 FF 08 00 00 FC 00 00 00
 14.806202 1  1B2             Rx   d 8 F0 F0 0F F3 C0 33 3C 00
 14.836249 1  457             Rx   d 8 57 02 00 00 00 00 FF FF
 14.956244 1  1B1             Rx   d 8 04 01 01 00 01 01 00 04
 14.966267 1  36E             Rx   d 8 00 00 00 C0 00 00 00 00
 14.986263 1  3D5             Rx   d 8 FF 08 00 00 FC 00 00 00
 15.006210 1  1B2             Rx   d 8 F0 F0 0F F3 C0 33 3C 00
 15.101262 1  457             Rx   d 8 57 01 00 00 00 00 FF FF
 15.156268 1  1B1             Rx   d 8 04 01 01 00 01 01 00 04
 15.166281 1  36E             Rx   d 8 00 00 00 C0 00 00 00 00
 15.186274 1  3D5             Rx   d 8 FF 08 00 00 FC 00 00 00
 15.206229 1  1B2             Rx   d 8 F0 F0 0F F3 C0 33 3C 00
 15.356256 1  1B1             Rx   d 8 04 01 01 00 01 01 00 04
 15.366297 1  36E             Rx   d 8 00 00 00 C0 00 00 00 00
 15.386267 1  3D5             Rx   d 8 FF 08 00 00 FC 00 00 00
 15.406207 1  1B2             Rx   d 8 F0 F0 0F F3 C0 33 3C 00
 15.483715 1  716             Tx   d 8 02 11 03 00 00 00 00 00
 15.491370 1  71E             Rx   d 8 03 7F 11 12 AA AA AA AA
 15.556416 1  1B1             Rx   d 8 04 01 01 00 01 01 00 04
 15.566437 1  36E             Rx   d 8 00 00 00 C0 00 00 00 00
 15.586587 1  3D5             Rx   d 8 FF 08 00 00 FC 00 00 00
 15.606432 1  1B2             Rx   d 8 F0 F0 0F F3 C0 33 3C 00
 15.756285 1  1B1             Rx   d 8 04 01 01 00 01 01 00 04
 15.766289 1  36E             Rx   d 8 00 00 00 C0 00 00 00 00
 15.786279 1  3D5             Rx   d 8 FF 08 00 00 FC 00 00 00
 15.806225 1  1B2             Rx   d 8 F0 F0 0F F3 C0 33 3C 00
 15.956275 1  1B1             Rx   d 8 04 01 01 00 01 01 00 04
 15.966286 1  36E             Rx   d 8 00 00 00 C0 00 00 00 00
 15.986272 1  3D5             Rx   d 8 FF 08 00 00 FC 00 00 00
 16.006241 1  1B2             Rx   d 8 F0 F0 0F F3 C0 33 3C 00
 16.101297 1  457             Rx   d 8 57 04 00 00 00 00 FF FF
 16.156286 1  1B1             Rx   d 8 04 01 01 00 01 01 00 04
 16.166300 1  36E             Rx   d 8 00 00 00 C0 00 00 00 00
 16.186286 1  3D5             Rx   d 8 FF 08 00 00 FC 00 00 00
 16.206268 1  1B2             Rx   d 8 F0 F0 0F F3 C0 33 3C 00
 16.356283 1  1B1             Rx   d 8 04 01 01 00 01 01 00 04
 16.366311 1  36E             Rx   d 8 00 00 00 C0 00 00 00 00
 16.386284 1  3D5             Rx   d 8 FF 08 00 00 FC 00 00 00
 16.406229 1  1B2             Rx   d 8 F0 F0 0F F3 C0 33 3C 00
 16.556274 1  1B1             Rx   d 8 04 01 01 00 01 01 00 04
 16.566301 1  36E             Rx   d 8 00 00 00 C0 00 00 00 00
 16.586300 1  3D5             Rx   d 8 FF 08 00 00 FC 00 00 00
 16.606233 1  1B2             Rx   d 8 F0 F0 0F F3 C0 33 3C 00
 16.756303 1  1B1             Rx   d 8 04 01 01 00 01 01 00 04
 16.766303 1  36E             Rx   d 8 00 00 00 C0 00 00 00 00
 16.786288 1  3D5             Rx   d 8 FF 08 00 00 FC 00 00 00
 16.806245 1  1B2             Rx   d 8 F0 F0 0F F3 C0 33 3C 00
 16.956285 1  1B1             Rx   d 8 04 01 01 00 01 01 00 04
 16.966306 1  36E             Rx   d 8 00 00 00 C0 00 00 00 00
 16.986290 1  3D5             Rx   d 8 FF 08 00 00 FC 00 00 00
 17.006250 1  1B2             Rx   d 8 F0 F0 0F F3 C0 33 3C 00
 17.101329 1  457             Rx   d 8 57 04 00 00 00 00 FF FF
 17.156315 1  1B1             Rx   d 8 04 01 01 00 01 01 00 04
 17.166311 1  36E             Rx   d 8 00 00 00 C0 00 00 00 00
 17.186303 1  3D5             Rx   d 8 FF 08 00 00 FC 00 00 00
 17.206256 1  1B2             Rx   d 8 F0 F0 0F F3 C0 33 3C 00
 17.356288 1  1B1             Rx   d 8 04 01 01 00 01 01 00 04
 17.366323 1  36E             Rx   d 8 00 00 00 C0 00 00 00 00
 17.386307 1  3D5             Rx   d 8 FF 08 00 00 FC 00 00 00
 17.406248 1  1B2             Rx   d 8 F0 F0 0F F3 C0 33 3C 00
 17.556305 1  1B1             Rx   d 8 04 01 01 00 01 01 00 04
 17.566320 1  36E             Rx   d 8 00 00 00 C0 00 00 00 00
 17.586305 1  3D5             Rx   d 8 FF 08 00 00 FC 00 00 00
 17.606246 1  1B2             Rx   d 8 F0 F0 0F F3 C0 33 3C 00
 17.756806 1  1B1             Rx   d 8 04 01 01 00 01 01 00 04
 17.766917 1  36E             Rx   d 8 00 00 00 C0 00 00 00 00
 17.786532 1  3D5             Rx   d 8 FF 08 00 00 FC 00 00 00
 17.806386 1  1B2             Rx   d 8 F0 F0 0F F3 C0 33 3C 00
 17.956333 1  1B1             Rx   d 8 04 01 01 00 01 01 00 04
 17.966325 1  36E             Rx   d 8 00 00 00 C0 00 00 00 00
 17.986310 1  3D5             Rx   d 8 FF 08 00 00 FC 00 00 00
 18.006265 1  1B2             Rx   d 8 F0 F0 0F F3 C0 33 3C 00
 18.101331 1  457             Rx   d 8 57 04 00 00 00 00 FF FF
 18.156319 1  1B1             Rx   d 8 04 01 01 00 01 01 00 04
 18.166364 1  36E             Rx   d 8 00 00 00 C0 00 00 00 00
 18.186326 1  3D5             Rx   d 8 FF 08 00 00 FC 00 00 00
 18.206267 1  1B2             Rx   d 8 F0 F0 0F F3 C0 33 3C 00
 18.356324 1  1B1             Rx   d 8 04 01 01 00 01 01 00 04
 18.366442 1  36E             Rx   d 8 00 00 00 C0 00 00 00 00
 18.386428 1  3D5             Rx   d 8 FF 08 00 00 FC 00 00 00
 18.406369 1  1B2             Rx   d 8 F0 F0 0F F3 C0 33 3C 00
 18.556411 1  1B1             Rx   d 8 04 01 01 00 01 01 00 04
 18.566438 1  36E             Rx   d 8 00 00 00 C0 00 00 00 00
 18.586424 1  3D5             Rx   d 8 FF 08 00 00 FC 00 00 00
 18.606354 1  1B2             Rx   d 8 F0 F0 0F F3 C0 33 3C 00
 18.756445 1  1B1             Rx   d 8 04 01 01 00 01 01 00 04
 18.766449 1  36E             Rx   d 8 00 00 00 C0 00 00 00 00
 18.786448 1  3D5             Rx   d 8 FF 08 00 00 FC 00 00 00
 18.806371 1  1B2             Rx   d 8 F0 F0 0F F3 C0 33 3C 00
 18.956431 1  1B1             Rx   d 8 04 01 01 00 01 01 00 04
 18.966442 1  36E             Rx   d 8 00 00 00 C0 00 00 00 00
 18.986431 1  3D5             Rx   d 8 FF 08 00 00 FC 00 00 00
 19.006400 1  1B2             Rx   d 8 F0 F0 0F F3 C0 33 3C 00
 19.101452 1  457             Rx   d 8 57 04 00 00 00 00 FF FF
 19.156446 1  1B1             Rx   d 8 04 01 01 00 01 01 00 04
 19.166445 1  36E             Rx   d 8 00 00 00 C0 00 00 00 00
 19.186431 1  3D5             Rx   d 8 FF 08 00 00 FC 00 00 00
 19.206389 1  1B2             Rx   d 8 F0 F0 0F F3 C0 33 3C 00
 19.356435 1  1B1             Rx   d 8 04 01 01 00 01 01 00 04
 19.366447 1  36E             Rx   d 8 00 00 00 C0 00 00 00 00
 19.386432 1  3D5             Rx   d 8 FF 08 00 00 FC 00 00 00
 19.406382 1  1B2             Rx   d 8 F0 F0 0F F3 C0 33 3C 00
 19.556436 1  1B1             Rx   d 8 04 01 01 00 01 01 00 04
 19.566448 1  36E             Rx   d 8 00 00 00 C0 00 00 00 00
 19.586429 1  3D5             Rx   d 8 FF 08 00 00 FC 00 00 00
 19.606383 1  1B2             Rx   d 8 F0 F0 0F F3 C0 33 3C 00
 19.756493 1  1B1             Rx   d 8 04 01 01 00 01 01 00 04
 19.766474 1  36E             Rx   d 8 00 00 00 C0 00 00 00 00
 19.786443 1  3D5             Rx   d 8 FF 08 00 00 FC 00 00 00
 19.806388 1  1B2             Rx   d 8 F0 F0 0F F3 C0 33 3C 00
 19.956504 1  1B1             Rx   d 8 04 01 01 00 01 01 00 04
 19.966417 1  36E             Rx   d 8 00 00 00 C0 00 00 00 00
 19.986565 1  3D5             Rx   d 8 FF 08 00 00 FC 00 00 00
 20.006432 1  1B2             Rx   d 8 F0 F0 0F F3 C0 33 3C 00
 20.101384 1  457             Rx   d 8 57 04 00 00 00 00 FF FF
 20.156357 1  1B1             Rx   d 8 04 01 01 00 01 01 00 04
 20.166390 1  36E             Rx   d 8 00 00 00 C0 00 00 00 00
 20.186371 1  3D5             Rx   d 8 FF 08 00 00 FC 00 00 00
 20.206314 1  1B2             Rx   d 8 F0 F0 0F F3 C0 33 3C 00
 20.356361 1  1B1             Rx   d 8 04 01 01 00 01 01 00 04
 20.366368 1  36E             Rx   d 8 00 00 00 C0 00 00 00 00
 20.386360 1  3D5             Rx   d 8 FF 08 00 00 FC 00 00 00
 20.406298 1  1B2             Rx   d 8 F0 F0 0F F3 C0 33 3C 00
 20.556356 1  1B1             Rx   d 8 04 01 01 00 01 01 00 04
 20.566372 1  36E             Rx   d 8 00 00 00 C0 00 00 00 00
 20.586360 1  3D5             Rx   d 8 FF 08 00 00 FC 00 00 00
 20.606333 1  1B2             Rx   d 8 F0 F0 0F F3 C0 33 3C 00
 20.756377 1  1B1             Rx   d 8 04 01 01 00 01 01 00 04
 20.766381 1  36E             Rx   d 8 00 00 00 C0 00 00 00 00
 20.786368 1  3D5             Rx   d 8 FF 08 00 00 FC 00 00 00
 20.806322 1  1B2             Rx   d 8 F0 F0 0F F3 C0 33 3C 00
 20.956376 1  1B1             Rx   d 8 04 01 01 00 01 01 00 04
 20.966392 1  36E             Rx   d 8 00 00 00 C0 00 00 00 00
 20.986367 1  3D5             Rx   d 8 FF 08 00 00 FC 00 00 00
 21.006318 1  1B2             Rx   d 8 F0 F0 0F F3 C0 33 3C 00
 21.101388 1  457             Rx   d 8 57 04 00 00 00 00 FF FF
 21.156592 1  1B1             Rx   d 8 04 01 01 00 01 01 00 04
 21.166409 1  36E             Rx   d 8 00 00 00 C0 00 00 00 00
 21.186406 1  3D5             Rx   d 8 FF 08 00 00 FC 00 00 00
 21.206350 1  1B2             Rx   d 8 F0 F0 0F F3 C0 33 3C 00
 21.356382 1  1B1             Rx   d 8 04 01 01 00 01 01 00 04
 21.366394 1  36E             Rx   d 8 00 00 00 C0 00 00 00 00
 21.386370 1  3D5             Rx   d 8 FF 08 00 00 FC 00 00 00
 21.406321 1  1B2             Rx   d 8 F0 F0 0F F3 C0 33 3C 00
 21.556379 1  1B1             Rx   d 8 04 01 01 00 01 01 00 04
 21.566394 1  36E             Rx   d 8 00 00 00 C0 00 00 00 00
 21.586379 1  3D5             Rx   d 8 FF 08 00 00 FC 00 00 00
 21.606320 1  1B2             Rx   d 8 F0 F0 0F F3 C0 33 3C 00
 21.756394 1  1B1             Rx   d 8 04 01 01 00 01 01 00 04
 21.766396 1  36E             Rx   d 8 00 00 00 C0 00 00 00 00
 21.786381 1  3D5             Rx   d 8 FF 08 00 00 FC 00 00 00
 21.806335 1  1B2             Rx   d 8 F0 F0 0F F3 C0 33 3C 00
 21.956396 1  1B1             Rx   d 8 04 01 01 00 01 01 00 04
 21.966405 1  36E             Rx   d 8 00 00 00 C0 00 00 00 00
 21.986400 1  3D5             Rx   d 8 FF 08 00 00 FC 00 00 00
 22.006381 1  1B2             Rx   d 8 F0 F0 0F F3 C0 33 3C 00
 22.101883 1  457             Rx   d 8 57 04 00 00 00 00 FF FF
 22.156559 1  1B1             Rx   d 8 04 01 01 00 01 01 00 04
 22.166543 1  36E             Rx   d 8 00 00 00 C0 00 00 00 00
 22.186904 1  3D5             Rx   d 8 FF 08 00 00 FC 00 00 00
 22.206434 1  1B2             Rx   d 8 F0 F0 0F F3 C0 33 3C 00
 22.356410 1  1B1             Rx   d 8 04 01 01 00 01 01 00 04
 22.366400 1  36E             Rx   d 8 00 00 00 C0 00 00 00 00
 22.386387 1  3D5             Rx   d 8 FF 08 00 00 FC 00 00 00
 22.406334 1  1B2             Rx   d 8 F0 F0 0F F3 C0 33 3C 00
 22.556398 1  1B1             Rx   d 8 04 01 01 00 01 01 00 04
 22.566410 1  36E             Rx   d 8 00 00 00 C0 00 00 00 00
 22.586397 1  3D5             Rx   d 8 FF 08 00 00 FC 00 00 00
 22.606337 1  1B2             Rx   d 8 F0 F0 0F F3 C0 33 3C 00
 22.756402 1  1B1             Rx   d 8 04 01 01 00 01 01 00 04
 22.766412 1  36E             Rx   d 8 00 00 00 C0 00 00 00 00
 22.786398 1  3D5             Rx   d 8 FF 08 00 00 FC 00 00 00
 22.806340 1  1B2             Rx   d 8 F0 F0 0F F3 C0 33 3C 00
 22.956384 1  1B1             Rx   d 8 04 01 01 00 01 01 00 04
 22.966413 1  36E             Rx   d 8 00 00 00 C0 00 00 00 00
 22.986398 1  3D5             Rx   d 8 FF 08 00 00 FC 00 00 00
 23.006354 1  1B2             Rx   d 8 F0 F0 0F F3 C0 33 3C 00
 23.101422 1  457             Rx   d 8 57 04 00 00 00 00 FF FF
 23.156406 1  1B1             Rx   d 8 04 01 01 00 01 01 00 04
 23.166414 1  36E             Rx   d 8 00 00 00 C0 00 00 00 00
 23.186405 1  3D5             Rx   d 8 FF 08 00 00 FC 00 00 00
 23.206339 1  1B2             Rx   d 8 F0 F0 0F F3 C0 33 3C 00
 23.356406 1  1B1             Rx   d 8 04 01 01 00 01 01 00 04
 23.366431 1  36E             Rx   d 8 00 00 00 C0 00 00 00 00
 23.386415 1  3D5             Rx   d 8 FF 08 00 00 FC 00 00 00
 23.406358 1  1B2             Rx   d 8 F0 F0 0F F3 C0 33 3C 00
 23.556407 1  1B1             Rx   d 8 04 01 01 00 01 01 00 04
 23.566431 1  36E             Rx   d 8 00 00 00 C0 00 00 00 00
 23.586431 1  3D5             Rx   d 8 FF 08 00 00 FC 00 00 00
 23.606373 1  1B2             Rx   d 8 F0 F0 0F F3 C0 33 3C 00
 23.756428 1  1B1             Rx   d 8 04 01 01 00 01 01 00 04
 23.766433 1  36E             Rx   d 8 00 00 00 C0 00 00 00 00
 23.786434 1  3D5             Rx   d 8 FF 08 00 00 FC 00 00 00
 23.806373 1  1B2             Rx   d 8 F0 F0 0F F3 C0 33 3C 00
 23.956415 1  1B1             Rx   d 8 04 01 01 00 01 01 00 04
 23.966447 1  36E             Rx   d 8 00 00 00 C0 00 00 00 00
 23.986428 1  3D5             Rx   d 8 FF 08 00 00 FC 00 00 00
 24.006366 1  1B2             Rx   d 8 F0 F0 0F F3 C0 33 3C 00
 24.101445 1  457             Rx   d 8 57 04 00 00 00 00 FF FF
 24.156424 1  1B1             Rx   d 8 04 01 01 00 01 01 00 04
 24.166436 1  36E             Rx   d 8 00 00 00 C0 00 00 00 00
 24.185639 1  716             Tx   d 8 02 10 01 00 00 00 00 00
 24.186923 1  3D5             Rx   d 8 FF 08 00 00 FC 00 00 00
 24.201459 1  71E             Rx   d 8 06 50 01 00 32 01 F4 AA
 24.206452 1  1B2             Rx   d 8 F0 F0 0F F3 C0 33 3C 00
 24.356533 1  1B1             Rx   d 8 04 01 01 00 01 01 00 04
 24.366850 1  36E             Rx   d 8 00 00 00 C0 00 00 00 00
 24.386664 1  3D5             Rx   d 8 FF 08 00 00 FC 00 00 00
 24.406409 1  1B2             Rx   d 8 F0 F0 0F F3 C0 33 3C 00
 24.556439 1  1B1             Rx   d 8 04 01 01 00 01 01 00 04
